Circuit: * C:\Users\kipman725\Documents\GitHub\MegaPlateAmp\Sims\CurrentMonMorbid\isense01_neg_rail_param.asc

Direct Newton iteration failed to find .op point.  (Use ".option noopiter" to skip.)
Starting Gmin stepping
Gmin = 10
Gmin = 1.07374
Gmin = 0.115292
Gmin = 0.0123794
Gmin = 0.00132923
Gmin = 0.000142725
Gmin = 1.5325e-05
Gmin = 1.6455e-06
vernier = 0.5
Gmin = 2.7607e-07
vernier = 0.666667
Gmin = 7.08798e-08
vernier = 0.888888
vernier = 1
Gmin = 9.33136e-09
Gmin = 1.00195e-09
Gmin = 1.07583e-10
Gmin = 1.15517e-11
Gmin = 1.24035e-12
Gmin = 1.33182e-13
Gmin = 0
Gmin stepping succeeded in finding the operating point.

Semiconductor Device Operating Points:
                        --- Diodes ---
Name:    d:u1:3      d:u1:16     d:u1:15     d:u1:14     d:u1:7
Model:  u1:dbia2    u1:dbia2     u1:din     u1:dlimp2     u1:dp
Id:       1.25e-7     1.25e-7      NaN         NaN        1.70e-3
Vd:       1.71e+0     1.71e+0    -9.70e-6     3.55e-1     1.00e+1
Req:      1.00e-3     1.00e-3      NaN        2.50e-8     1.00e-3
CAP:      0.00e+0     0.00e+0     0.00e+0     0.00e+0     0.00e+0

Name:    d:u1:2      d:u1:1      d:u1:13     d:u1:12     d:u1:6
Model:   u1:desd     u1:desd     u1:desd     u1:desd    u1:dlimn2
Id:        NaN         NaN         NaN         NaN         NaN
Vd:      -7.17e+0    -7.17e+0    -2.83e+0    -2.83e+0     4.24e-1
Req:       NaN         NaN         NaN         NaN        1.00e-8
CAP:      0.00e+0     0.00e+0     0.00e+0     0.00e+0     0.00e+0

Name:    d:u1:11     d:u1:10     d:u1:8      d:u1:5      d:u1:4
Model:  u1:dbia1    u1:dbia1    u1:dlimp1   u1:dlimn1   u1:dbia3
Id:        NaN         NaN         NaN         NaN        8.91e-5
Vd:      -1.71e+0    -1.71e+0     3.55e-1     4.24e-1     1.11e+0
Req:       NaN         NaN        1.00e-9      NaN        1.00e-2
CAP:      0.00e+0     0.00e+0     0.00e+0     0.00e+0     0.00e+0

                        --- Bipolar Transistors ---
Name:       q4          q5          q3          q6          q7
Model:    mpsa94      mpsa94      mpsa94      mpsa44      mpsa44
Ib:       -6.13e-6     1.94e-7    -9.23e-8     4.64e-7     6.50e-6
Ic:       -5.01e-4    -4.78e-4    -9.88e-4     5.01e-4     4.77e-4
Vbe:      -5.65e-1    -4.77e-1    -4.96e-1     5.25e-1     5.94e-1
Vbc:       4.77e-1     2.94e+2     2.96e+2    -2.94e+2    -5.25e-1
Vce:      -1.04e+0    -2.95e+2    -2.97e+2     2.95e+2     1.12e+0
BetaDC:    8.17e+1    -2.47e+3     1.07e+4     1.08e+3     7.34e+1
Gm:        1.92e-2     1.84e-2     3.81e-2     1.96e-2     1.84e-2
Rpi:       4.34e+3     9.08e+4     4.84e+4     5.62e+4     4.00e+3
Rx:        1.12e+1     1.12e+1     1.12e+1     2.48e+1     2.26e+1
Ro:        2.10e+4     6.38e+5     3.10e+5     6.27e+5     4.28e+4
Cbe:        NaN         NaN         NaN         NaN         NaN
Cbc:        NaN         NaN         NaN         NaN         NaN
Cjs:       0.00e+0     0.00e+0     0.00e+0     0.00e+0     0.00e+0
BetaAC:    8.32e+1     1.67e+3     1.84e+3     1.10e+3     7.38e+1
Cbx:       0.00e+0     0.00e+0     0.00e+0     0.00e+0     0.00e+0
Ft:        1.20e+7     1.29e+7     1.85e+7     6.65e+6     5.55e+6

Name:       q2          q1
Model:    2n3906      2n3906
Ib:       -4.88e-6    -4.90e-6
Ic:       -9.78e-4    -9.78e-4
Vbe:      -6.55e-1    -6.55e-1
Vbc:       4.96e-1     0.00e+0
Vce:      -1.15e+0    -6.55e-1
BetaDC:    2.01e+2     2.00e+2
Gm:        3.77e-2     3.77e-2
Rpi:       5.30e+3     5.28e+3
Rx:        2.00e+1     2.00e+1
Ro:        1.03e+5     1.02e+5
Cbe:        NaN         NaN
Cbc:        NaN         NaN
Cjs:       0.00e+0     0.00e+0
BetaAC:    2.00e+2     1.99e+2
Cbx:       0.00e+0     0.00e+0
Ft:        1.84e+8     1.80e+8

                        --- VDMOSFET Transistors ---
Name:        m:u1:2      m:u1:1
Model:        u1:pi       u1:ni
Id:          -2.38e-4     1.22e-3
Vgs:         -3.55e-1     4.24e-1
Vds:         -4.98e+0     5.02e+0
Vth:         -3.00e-1     3.00e-1
Gm:           8.66e-3     1.96e-2
Gds:          2.27e-6     1.16e-5
Cgs:          0.00e+0     0.00e+0
Cgd:          0.00e+0     0.00e+0
Cbody:        0.00e+0     0.00e+0



Date: Sat Apr 18 20:11:26 2020
Total elapsed time: 1.825 seconds.

tnom = 27
temp = 27
method = trap
totiter = 697
traniter = 0
tranpoints = 0
accept = 0
rejected = 0
matrix size = 44
fillins = 48
solver = Normal
Matrix Compiler1: 6.46 KB object code size
Matrix Compiler2: 5.20 KB object code size  0.8/0.8/[0.5]

